TB408 000:023.549   SEGGER J-Link V7.22b Log File
TB408 000:023.859   DLL Compiled: Jun 17 2021 17:22:49
TB408 000:023.885   Logging started @ 2022-07-07 12:31
TB408 000:023.909 - 23.920ms
TB408 000:023.942 JLINK_SetWarnOutHandler(...)
TB408 000:023.968 - 0.037ms
TB408 000:023.994 JLINK_OpenEx(...)
TB408 000:026.528   Firmware: J-Link V9 compiled May  7 2021 16:26:12
TB408 000:027.171   Firmware: J-Link V9 compiled May  7 2021 16:26:12
TB408 000:027.467   Decompressing FW timestamp took 188 us
TB408 000:035.822   Hardware: V9.50
TB408 000:035.881   S/N: 59520438
TB408 000:035.935   OEM: SEGGER
TB408 000:035.977   Feature(s): GDB, RDI, FlashBP, FlashDL, JFlash
TB408 000:037.869   TELNET listener socket opened on port 19021
TB408 000:038.274   WEBSRV Starting webserver
TB408 000:038.644   WEBSRV Webserver running on local port 19080
TB408 000:038.691 - 14.708ms returns "O.K."
TB408 000:038.728 JLINK_GetEmuCaps()
TB408 000:038.754 - 0.037ms returns 0xB9FF7BBF
TB408 000:038.783 JLINK_TIF_GetAvailable(...)
TB408 000:039.278 - 0.521ms
TB408 000:039.324 JLINK_SetErrorOutHandler(...)
TB408 000:039.351 - 0.040ms
TB408 000:039.394 JLINK_ExecCommand("ProjectFile = "C:\Users\10949\Desktop\usart\USART_TEST\MDK-ARM\JLinkSettings.ini"", ...). 
TB408 000:076.961   Ref file found at: C:\Keil_v5\ARM\Segger\JLinkDevices.ref
TB408 000:077.326   XML referenced by ref file: C:\Program Files (x86)\SEGGER\JLink\JLinkDevices.xml
TB408 000:078.531   C:\Program Files (x86)\SEGGER\JLink\JLinkDevices.xml evaluated successfully.
TB408 000:242.356 - 202.990ms returns 0x00
TB408 000:245.746 JLINK_ExecCommand("Device = STM32F103ZE", ...). 
TB408 000:249.011   Device "STM32F103ZE" selected.
TB408 000:250.159 - 4.348ms returns 0x00
TB408 000:250.204 JLINK_GetHardwareVersion()
TB408 000:250.231 - 0.038ms returns 95000
TB408 000:250.256 JLINK_GetDLLVersion()
TB408 000:250.280 - 0.035ms returns 72202
TB408 000:250.304 JLINK_GetOEMString(...)
TB408 000:250.330 JLINK_GetFirmwareString(...)
TB408 000:250.360 - 0.041ms
TB408 000:258.891 JLINK_GetDLLVersion()
TB408 000:258.954 - 0.075ms returns 72202
TB408 000:258.981 JLINK_GetCompileDateTime()
TB408 000:259.004 - 0.034ms
TB408 000:262.238 JLINK_GetFirmwareString(...)
TB408 000:262.317 - 0.090ms
TB408 000:265.505 JLINK_GetHardwareVersion()
TB408 000:265.578 - 0.085ms returns 95000
TB408 000:268.701 JLINK_GetSN()
TB408 000:268.764 - 0.077ms returns 59520438
TB408 000:271.440 JLINK_GetOEMString(...)
TB408 000:277.402 JLINK_TIF_Select(JLINKARM_TIF_JTAG)
TB408 000:279.440 - 2.103ms returns 0x00
TB408 000:279.529 JLINK_HasError()
TB408 000:279.570 JLINK_SetSpeed(5000)
TB408 000:279.760 - 0.227ms
TB408 000:279.817 JLINK_GetIdData(pIdData)
TB408 000:284.075   InitTarget() start
TB408 000:284.162    J-Link Script File: Executing InitTarget()
TB408 000:291.488   Can not attach to CPU. Trying connect under reset.
TB408 000:462.540   InitTarget() end
TB408 000:466.484   Could not measure total IR len. TDO is constant high.
TB408 000:622.524   InitTarget() start
TB408 000:622.610    J-Link Script File: Executing InitTarget()
TB408 000:633.215   InitTarget() end
TB408 000:637.619   TotalIRLen = 9, IRPrint = 0x0011
TB408 000:641.234   JTAG chain detection found 2 devices:
TB408 000:646.878    #0 Id: 0x3BA00477, IRLen: 04, CoreSight JTAG-DP
TB408 000:649.709    #1 Id: 0x06414041, IRLen: 05, STM32 Boundary Scan
TB408 000:654.910   DPv0 detected
TB408 000:658.446   Scanning AP map to find all available APs
TB408 000:662.599   AP[1]: Stopped AP scan as end of AP map has been reached
TB408 000:665.394   AP[0]: AHB-AP (IDR: 0x14770011)
TB408 000:667.905   Iterating through AP map to find AHB-AP to use
TB408 000:672.517   AP[0]: Core found
TB408 000:676.118   AP[0]: AHB-AP ROM base: 0xE00FF000
TB408 000:679.942   CPUID register: 0x411FC231. Implementer code: 0x41 (ARM)
TB408 000:683.083   Found Cortex-M3 r1p1, Little endian.
TB408 000:683.875   -- Max. mem block: 0x00010C40
TB408 000:684.274   CPU_ReadMem(4 bytes @ 0xE000EDF0)
TB408 000:685.327   CPU_ReadMem(4 bytes @ 0xE0002000)
TB408 000:689.129   FPUnit: 6 code (BP) slots and 2 literal slots
TB408 000:689.257   CPU_ReadMem(4 bytes @ 0xE000EDFC)
TB408 000:689.702   CPU_WriteMem(4 bytes @ 0xE000EDFC)
TB408 000:690.237   CPU_ReadMem(4 bytes @ 0xE0001000)
TB408 000:690.856   CPU_WriteMem(4 bytes @ 0xE0001000)
TB408 000:691.406   CPU_ReadMem(4 bytes @ 0xE000ED88)
TB408 000:691.877   CPU_WriteMem(4 bytes @ 0xE000ED88)
TB408 000:692.324   CPU_ReadMem(4 bytes @ 0xE000ED88)
TB408 000:692.863   CPU_WriteMem(4 bytes @ 0xE000ED88)
TB408 000:697.042   CoreSight components:
TB408 000:700.661   ROMTbl[0] @ E00FF000
TB408 000:700.747   CPU_ReadMem(64 bytes @ 0xE00FF000)
TB408 000:701.659   CPU_ReadMem(32 bytes @ 0xE000EFE0)
TB408 000:705.684   ROMTbl[0][0]: E000E000, CID: B105E00D, PID: 001BB000 SCS
TB408 000:705.769   CPU_ReadMem(32 bytes @ 0xE0001FE0)
TB408 000:709.710   ROMTbl[0][1]: E0001000, CID: B105E00D, PID: 001BB002 DWT
TB408 000:709.804   CPU_ReadMem(32 bytes @ 0xE0002FE0)
TB408 000:713.780   ROMTbl[0][2]: E0002000, CID: B105E00D, PID: 000BB003 FPB
TB408 000:713.866   CPU_ReadMem(32 bytes @ 0xE0000FE0)
TB408 000:717.638   ROMTbl[0][3]: E0000000, CID: B105E00D, PID: 001BB001 ITM
TB408 000:717.723   CPU_ReadMem(32 bytes @ 0xE0040FE0)
TB408 000:721.541   ROMTbl[0][4]: E0040000, CID: B105900D, PID: 001BB923 TPIU-Lite
TB408 000:721.700   CPU_ReadMem(32 bytes @ 0xE0041FE0)
TB408 000:725.518   ROMTbl[0][5]: E0041000, CID: B105900D, PID: 101BB924 ETM-M3
TB408 000:725.651   pIdData->ScanLen=9
TB408 000:725.690   
TB408 000:725.711   pIdData->NumDevices=2
TB408 000:725.749   
TB408 000:725.771   pIdData->aId[0]=0x3BA00477
TB408 000:725.802   
TB408 000:725.824   pIdData->aIrRead[0]=0
TB408 000:725.858   
TB408 000:725.879   pIdData->aScanLen[0]=0
TB408 000:725.911   
TB408 000:725.934   pIdData->aScanRead[0]=0
TB408 000:725.972   
TB408 000:725.994 - 446.189ms
TB408 000:726.035 JLINK_JTAG_GetDeviceID(DeviceIndex = 0)
TB408 000:726.064 - 0.041ms returns 1000342647
TB408 000:726.091 JLINK_JTAG_GetDeviceInfo(DeviceIndex = 0)
TB408 000:726.116 - 0.037ms returns 0
TB408 000:726.143 JLINK_JTAG_GetDeviceID(DeviceIndex = 1)
TB408 000:726.170 - 0.040ms returns 104939585
TB408 000:726.199 JLINK_JTAG_GetDeviceInfo(DeviceIndex = 1)
TB408 000:726.222 - 0.035ms returns 0
TB408 000:726.330 JLINK_GetDLLVersion()
TB408 000:726.359 - 0.041ms returns 72202
TB408 000:726.383 JLINK_CORE_GetFound()
TB408 000:726.406 - 0.034ms returns 0x30000FF
TB408 000:726.432 JLINK_GetDebugInfo(0x100 = JLINKARM_ROM_TABLE_ADDR_INDEX)
TB408 000:726.458   Value=0xE00FF000
TB408 000:726.492 - 0.071ms returns 0
TB408 000:729.752 JLINK_GetDebugInfo(0x100 = JLINKARM_ROM_TABLE_ADDR_INDEX)
TB408 000:729.875   Value=0xE00FF000
TB408 000:729.908 - 0.167ms returns 0
TB408 000:729.933 JLINK_GetDebugInfo(0x101 = JLINKARM_DEBUG_INFO_ETM_ADDR_INDEX)
TB408 000:729.960   Value=0xE0041000
TB408 000:729.993 - 0.071ms returns 0
TB408 000:730.019 JLINK_ReadMemEx(0xE0041FD0, 0x20 Bytes, Flags = 0x02000004)
TB408 000:730.089   CPU_ReadMem(32 bytes @ 0xE0041FD0)
TB408 000:730.739   Data:  04 00 00 00 00 00 00 00 00 00 00 00 00 00 00 00 ...
TB408 000:730.871 - 0.863ms returns 32 (0x20)
TB408 000:730.961 JLINK_GetDebugInfo(0x102 = JLINKARM_DEBUG_INFO_MTB_ADDR_INDEX)
TB408 000:730.989   Value=0x00000000
TB408 000:731.024 - 0.075ms returns 0
TB408 000:731.052 JLINK_GetDebugInfo(0x103 = JLINKARM_DEBUG_INFO_TPIU_ADDR_INDEX)
TB408 000:731.080   Value=0xE0040000
TB408 000:731.113 - 0.072ms returns 0
TB408 000:731.138 JLINK_GetDebugInfo(0x104 = JLINKARM_DEBUG_INFO_ITM_ADDR_INDEX)
TB408 000:731.174   Value=0xE0000000
TB408 000:731.223 - 0.103ms returns 0
TB408 000:731.259 JLINK_GetDebugInfo(0x105 = JLINKARM_DEBUG_INFO_DWT_ADDR_INDEX)
TB408 000:731.389   Value=0xE0001000
TB408 000:731.424 - 0.176ms returns 0
TB408 000:731.449 JLINK_GetDebugInfo(0x106 = JLINKARM_DEBUG_INFO_FPB_ADDR_INDEX)
TB408 000:731.471   Value=0xE0002000
TB408 000:731.502 - 0.062ms returns 0
TB408 000:731.523 JLINK_GetDebugInfo(0x107 = JLINKARM_DEBUG_INFO_NVIC_ADDR_INDEX)
TB408 000:731.545   Value=0xE000E000
TB408 000:731.588 - 0.075ms returns 0
TB408 000:731.612 JLINK_GetDebugInfo(0x10C = JLINKARM_DEBUG_INFO_DBG_ADDR_INDEX)
TB408 000:731.637   Value=0xE000EDF0
TB408 000:731.671 - 0.070ms returns 0
TB408 000:731.696 JLINK_GetDebugInfo(0x01 = Unknown)
TB408 000:731.721   Value=0x00000000
TB408 000:731.754 - 0.069ms returns 0
TB408 000:731.777 JLINK_ReadMemU32(0xE000ED00, 0x1 Items)
TB408 000:731.822   CPU_ReadMem(4 bytes @ 0xE000ED00)
TB408 000:732.429   Data:  31 C2 1F 41
TB408 000:732.476   Debug reg: CPUID
TB408 000:732.512 - 0.746ms returns 1 (0x1)
TB408 000:732.538 JLINK_GetDebugInfo(0x10F = JLINKARM_DEBUG_INFO_HAS_CORTEX_M_SECURITY_EXT_INDEX)
TB408 000:732.563   Value=0x00000000
TB408 000:732.595 - 0.068ms returns 0
TB408 000:732.619 JLINK_HasError()
TB408 000:732.645 JLINK_SetResetType(JLINKARM_CM3_RESET_TYPE_NORMAL)
TB408 000:732.669 - 0.034ms returns JLINKARM_CM3_RESET_TYPE_NORMAL
TB408 000:732.692 JLINK_Reset()
TB408 000:732.735   CPU is running
TB408 000:732.769   CPU_WriteMem(4 bytes @ 0xE000EDF0)
TB408 000:733.255   CPU is running
TB408 000:733.302   CPU_WriteMem(4 bytes @ 0xE000EDFC)
TB408 000:736.613   Reset: Halt core after reset via DEMCR.VC_CORERESET.
TB408 000:739.471   Reset: Reset device via AIRCR.SYSRESETREQ.
TB408 000:739.540   CPU is running
TB408 000:739.580   CPU_WriteMem(4 bytes @ 0xE000ED0C)
TB408 000:791.794   CPU_ReadMem(4 bytes @ 0xE000EDF0)
TB408 000:792.413   CPU_ReadMem(4 bytes @ 0xE000EDF0)
TB408 000:792.928   CPU is running
TB408 000:792.977   CPU_WriteMem(4 bytes @ 0xE000EDF0)
TB408 000:793.534   CPU is running
TB408 000:793.582   CPU_WriteMem(4 bytes @ 0xE000EDFC)
TB408 000:799.770   CPU_ReadMem(4 bytes @ 0xE000EDF0)
TB408 000:802.468   CPU_WriteMem(4 bytes @ 0xE000EDFC)
TB408 000:802.983   CPU_WriteMem(4 bytes @ 0xE0001028)
TB408 000:803.503   CPU_WriteMem(4 bytes @ 0xE0001038)
TB408 000:803.952   CPU_WriteMem(4 bytes @ 0xE0001048)
TB408 000:804.422   CPU_WriteMem(4 bytes @ 0xE0001058)
TB408 000:804.854   CPU_WriteMem(4 bytes @ 0xE0002000)
TB408 000:805.300   CPU_ReadMem(4 bytes @ 0xE000EDFC)
TB408 000:805.917   CPU_ReadMem(4 bytes @ 0xE0001000)
TB408 000:806.404 - 73.730ms
TB408 000:806.444 JLINK_Halt()
TB408 000:806.468 - 0.036ms returns 0x00
TB408 000:806.496 JLINK_ReadMemU32(0xE000EDF0, 0x1 Items)
TB408 000:806.543   CPU_ReadMem(4 bytes @ 0xE000EDF0)
TB408 000:807.021   Data:  03 00 03 00
TB408 000:807.063   Debug reg: DHCSR
TB408 000:807.097 - 0.613ms returns 1 (0x1)
TB408 000:807.127 JLINK_WriteU32_64(0xE000EDF0, 0xA05F0003)
TB408 000:807.154   Debug reg: DHCSR
TB408 000:807.592   CPU_WriteMem(4 bytes @ 0xE000EDF0)
TB408 000:808.026 - 0.917ms returns 0 (0x00000000)
TB408 000:808.062 JLINK_WriteU32_64(0xE000EDFC, 0x01000000)
TB408 000:808.088   Debug reg: DEMCR
TB408 000:808.135   CPU_WriteMem(4 bytes @ 0xE000EDFC)
TB408 000:808.657 - 0.613ms returns 0 (0x00000000)
TB408 000:822.306 JLINK_GetHWStatus(...)
TB408 000:822.755 - 0.469ms returns 0
TB408 000:831.426 JLINK_GetNumBPUnits(Type = 0xFFFFFF00)
TB408 000:831.479 - 0.063ms returns 0x06
TB408 000:831.501 JLINK_GetNumBPUnits(Type = 0xF0)
TB408 000:831.523 - 0.031ms returns 0x2000
TB408 000:831.544 JLINK_GetNumWPUnits()
TB408 000:831.566 - 0.037ms returns 4
TB408 000:839.069 JLINK_GetSpeed()
TB408 000:839.140 - 0.083ms returns 5000
TB408 000:844.428 JLINK_ReadMemU32(0xE000E004, 0x1 Items)
TB408 000:844.542   CPU_ReadMem(4 bytes @ 0xE000E004)
TB408 000:845.109   Data:  01 00 00 00
TB408 000:845.162 - 0.745ms returns 1 (0x1)
TB408 000:845.204 JLINK_ReadMemU32(0xE000E004, 0x1 Items)
TB408 000:845.243   CPU_ReadMem(4 bytes @ 0xE000E004)
TB408 000:845.762   Data:  01 00 00 00
TB408 000:845.810 - 0.616ms returns 1 (0x1)
TB408 000:845.837 JLINK_WriteMemEx(0xE0001000, 0x0000001C Bytes, Flags = 0x02000004)
TB408 000:845.862   Data:  01 00 00 00 00 00 00 00 00 00 00 00 00 00 00 00 ...
TB408 000:846.092   CPU_WriteMem(28 bytes @ 0xE0001000)
TB408 000:846.700 - 0.890ms returns 0x1C
TB408 000:846.753 JLINK_Halt()
TB408 000:846.777 - 0.043ms returns 0x00
TB408 000:846.817 JLINK_IsHalted()
TB408 000:846.842 - 0.036ms returns TRUE
TB408 000:851.621 JLINK_WriteMem(0x20000000, 0x164 Bytes, ...)
TB408 000:851.665   Data:  00 BE 0A E0 0D 78 2D 06 68 40 08 24 40 00 00 D3 ...
TB408 000:852.201   CPU_WriteMem(356 bytes @ 0x20000000)
TB408 000:854.778 - 3.201ms returns 0x164
TB408 000:854.925 JLINK_HasError()
TB408 000:854.960 JLINK_WriteReg(R0, 0x08000000)
TB408 000:854.999 - 0.051ms returns 0
TB408 000:855.025 JLINK_WriteReg(R1, 0x044AA200)
TB408 000:855.058 - 0.044ms returns 0
TB408 000:855.083 JLINK_WriteReg(R2, 0x00000001)
TB408 000:855.118 - 0.052ms returns 0
TB408 000:855.150 JLINK_WriteReg(R3, 0x00000000)
TB408 000:855.181 - 0.043ms returns 0
TB408 000:855.206 JLINK_WriteReg(R4, 0x00000000)
TB408 000:855.238 - 0.044ms returns 0
TB408 000:855.263 JLINK_WriteReg(R5, 0x00000000)
TB408 000:855.313 - 0.062ms returns 0
TB408 000:855.339 JLINK_WriteReg(R6, 0x00000000)
TB408 000:855.368 - 0.040ms returns 0
TB408 000:855.392 JLINK_WriteReg(R7, 0x00000000)
TB408 000:855.421 - 0.041ms returns 0
TB408 000:855.446 JLINK_WriteReg(R8, 0x00000000)
TB408 000:855.486 - 0.052ms returns 0
TB408 000:855.511 JLINK_WriteReg(R9, 0x20000160)
TB408 000:855.541 - 0.040ms returns 0
TB408 000:855.566 JLINK_WriteReg(R10, 0x00000000)
TB408 000:855.595 - 0.045ms returns 0
TB408 000:855.624 JLINK_WriteReg(R11, 0x00000000)
TB408 000:855.832 - 0.224ms returns 0
TB408 000:855.861 JLINK_WriteReg(R12, 0x00000000)
TB408 000:855.893 - 0.045ms returns 0
TB408 000:855.920 JLINK_WriteReg(R13 (SP), 0x20001000)
TB408 000:855.951 - 0.044ms returns 0
TB408 000:855.978 JLINK_WriteReg(R14, 0x20000001)
TB408 000:856.014 - 0.052ms returns 0
TB408 000:856.044 JLINK_WriteReg(R15 (PC), 0x20000038)
TB408 000:856.078 - 0.046ms returns 0
TB408 000:856.104 JLINK_WriteReg(XPSR, 0x01000000)
TB408 000:856.136 - 0.045ms returns 0
TB408 000:856.162 JLINK_WriteReg(MSP, 0x20001000)
TB408 000:856.192 - 0.041ms returns 0
TB408 000:856.219 JLINK_WriteReg(PSP, 0x20001000)
TB408 000:856.249 - 0.042ms returns 0
TB408 000:856.274 JLINK_WriteReg(CFBP, 0x00000000)
TB408 000:856.306 - 0.044ms returns 0
TB408 000:856.332 JLINK_SetBPEx(Addr = 0x20000000, Type = 0xFFFFFFF2)
TB408 000:856.425   CPU_ReadMem(2 bytes @ 0x20000000)
TB408 000:857.009 - 0.703ms returns 0x00000001
TB408 000:857.052 JLINK_Go()
TB408 000:857.092   CPU_WriteMem(2 bytes @ 0x20000000)
TB408 000:857.528   CPU_ReadMem(4 bytes @ 0xE0001000)
TB408 000:858.048   CPU_WriteMem(4 bytes @ 0xE0002008)
TB408 000:858.093   CPU_WriteMem(4 bytes @ 0xE000200C)
TB408 000:858.128   CPU_WriteMem(4 bytes @ 0xE0002010)
TB408 000:858.164   CPU_WriteMem(4 bytes @ 0xE0002014)
TB408 000:858.200   CPU_WriteMem(4 bytes @ 0xE0002018)
TB408 000:858.234   CPU_WriteMem(4 bytes @ 0xE000201C)
TB408 000:859.545   CPU_WriteMem(4 bytes @ 0xE0001004)
TB408 000:862.359 - 5.350ms
TB408 000:862.437 JLINK_IsHalted()
TB408 000:864.710   CPU_ReadMem(2 bytes @ 0x20000000)
TB408 000:865.226 - 2.809ms returns TRUE
TB408 000:865.270 JLINK_ReadReg(R15 (PC))
TB408 000:865.308 - 0.050ms returns 0x20000000
TB408 000:865.335 JLINK_ClrBPEx(BPHandle = 0x00000001)
TB408 000:865.366 - 0.044ms returns 0x00
TB408 000:865.393 JLINK_ReadReg(R0)
TB408 000:865.423 - 0.043ms returns 0x00000000
TB408 000:865.968 JLINK_HasError()
TB408 000:866.007 JLINK_WriteReg(R0, 0x08000000)
TB408 000:866.038 - 0.042ms returns 0
TB408 000:866.063 JLINK_WriteReg(R1, 0x00000800)
TB408 000:866.093 - 0.041ms returns 0
TB408 000:866.117 JLINK_WriteReg(R2, 0x000000FF)
TB408 000:866.313 - 0.211ms returns 0
TB408 000:866.343 JLINK_WriteReg(R3, 0x00000000)
TB408 000:866.376 - 0.045ms returns 0
TB408 000:866.402 JLINK_WriteReg(R4, 0x00000000)
TB408 000:866.431 - 0.040ms returns 0
TB408 000:866.455 JLINK_WriteReg(R5, 0x00000000)
TB408 000:866.485 - 0.041ms returns 0
TB408 000:866.509 JLINK_WriteReg(R6, 0x00000000)
TB408 000:866.539 - 0.042ms returns 0
TB408 000:866.563 JLINK_WriteReg(R7, 0x00000000)
TB408 000:866.598 - 0.046ms returns 0
TB408 000:866.621 JLINK_WriteReg(R8, 0x00000000)
TB408 000:866.746 - 0.137ms returns 0
TB408 000:866.770 JLINK_WriteReg(R9, 0x20000160)
TB408 000:866.798 - 0.039ms returns 0
TB408 000:866.822 JLINK_WriteReg(R10, 0x00000000)
TB408 000:866.853 - 0.042ms returns 0
TB408 000:866.879 JLINK_WriteReg(R11, 0x00000000)
TB408 000:866.910 - 0.044ms returns 0
TB408 000:866.934 JLINK_WriteReg(R12, 0x00000000)
TB408 000:866.963 - 0.041ms returns 0
TB408 000:866.989 JLINK_WriteReg(R13 (SP), 0x20001000)
TB408 000:867.020 - 0.042ms returns 0
TB408 000:867.044 JLINK_WriteReg(R14, 0x20000001)
TB408 000:867.079 - 0.048ms returns 0
TB408 000:867.105 JLINK_WriteReg(R15 (PC), 0x20000020)
TB408 000:867.135 - 0.041ms returns 0
TB408 000:867.159 JLINK_WriteReg(XPSR, 0x01000000)
TB408 000:867.188 - 0.040ms returns 0
TB408 000:867.212 JLINK_WriteReg(MSP, 0x20001000)
TB408 000:867.243 - 0.042ms returns 0
TB408 000:867.268 JLINK_WriteReg(PSP, 0x20001000)
TB408 000:867.440 - 0.183ms returns 0
TB408 000:867.464 JLINK_WriteReg(CFBP, 0x00000000)
TB408 000:867.494 - 0.041ms returns 0
TB408 000:867.518 JLINK_SetBPEx(Addr = 0x20000000, Type = 0xFFFFFFF2)
TB408 000:867.551 - 0.046ms returns 0x00000002
TB408 000:867.587 JLINK_Go()
TB408 000:867.631   CPU_ReadMem(4 bytes @ 0xE0001000)
TB408 000:870.321 - 2.765ms
TB408 000:870.370 JLINK_IsHalted()
TB408 000:872.497   CPU_ReadMem(2 bytes @ 0x20000000)
TB408 000:873.050 - 2.698ms returns TRUE
TB408 000:873.083 JLINK_ReadReg(R15 (PC))
TB408 000:873.129 - 0.058ms returns 0x20000000
TB408 000:873.156 JLINK_ClrBPEx(BPHandle = 0x00000002)
TB408 000:873.184 - 0.040ms returns 0x00
TB408 000:873.210 JLINK_ReadReg(R0)
TB408 000:873.245 - 0.047ms returns 0x00000001
TB408 000:873.271 JLINK_HasError()
TB408 000:873.298 JLINK_WriteReg(R0, 0x08000000)
TB408 000:873.377 - 0.092ms returns 0
TB408 000:873.404 JLINK_WriteReg(R1, 0x00000800)
TB408 000:873.434 - 0.042ms returns 0
TB408 000:873.459 JLINK_WriteReg(R2, 0x000000FF)
TB408 000:873.489 - 0.041ms returns 0
TB408 000:873.514 JLINK_WriteReg(R3, 0x00000000)
TB408 000:873.545 - 0.047ms returns 0
TB408 000:873.575 JLINK_WriteReg(R4, 0x00000000)
TB408 000:873.605 - 0.077ms returns 0
TB408 000:873.668 JLINK_WriteReg(R5, 0x00000000)
TB408 000:873.700 - 0.045ms returns 0
TB408 000:873.726 JLINK_WriteReg(R6, 0x00000000)
TB408 000:873.755 - 0.040ms returns 0
TB408 000:873.782 JLINK_WriteReg(R7, 0x00000000)
TB408 000:873.812 - 0.042ms returns 0
TB408 000:873.837 JLINK_WriteReg(R8, 0x00000000)
TB408 000:873.868 - 0.043ms returns 0
TB408 000:873.893 JLINK_WriteReg(R9, 0x20000160)
TB408 000:874.083 - 0.203ms returns 0
TB408 000:874.108 JLINK_WriteReg(R10, 0x00000000)
TB408 000:874.139 - 0.043ms returns 0
TB408 000:874.165 JLINK_WriteReg(R11, 0x00000000)
TB408 000:874.193 - 0.040ms returns 0
TB408 000:874.217 JLINK_WriteReg(R12, 0x00000000)
TB408 000:874.248 - 0.041ms returns 0
TB408 000:874.270 JLINK_WriteReg(R13 (SP), 0x20001000)
TB408 000:874.299 - 0.039ms returns 0
TB408 000:874.322 JLINK_WriteReg(R14, 0x20000001)
TB408 000:874.351 - 0.041ms returns 0
TB408 000:874.377 JLINK_WriteReg(R15 (PC), 0x200000B6)
TB408 000:874.406 - 0.040ms returns 0
TB408 000:874.430 JLINK_WriteReg(XPSR, 0x01000000)
TB408 000:874.462 - 0.044ms returns 0
TB408 000:874.488 JLINK_WriteReg(MSP, 0x20001000)
TB408 000:874.521 - 0.045ms returns 0
TB408 000:874.546 JLINK_WriteReg(PSP, 0x20001000)
TB408 000:892.708 - 18.175ms returns 0
TB408 000:892.746 JLINK_WriteReg(CFBP, 0x00000000)
TB408 000:892.777 - 0.042ms returns 0
TB408 000:892.804 JLINK_SetBPEx(Addr = 0x20000000, Type = 0xFFFFFFF2)
TB408 000:892.838 - 0.046ms returns 0x00000003
TB408 000:892.865 JLINK_Go()
TB408 000:892.908   CPU_ReadMem(4 bytes @ 0xE0001000)
TB408 000:895.400 - 2.565ms
TB408 000:895.449 JLINK_IsHalted()
TB408 000:895.898 - 0.469ms returns FALSE
TB408 000:895.936 JLINK_HasError()
TB408 000:925.436 JLINK_IsHalted()
TB408 000:927.722   CPU_ReadMem(2 bytes @ 0x20000000)
TB408 000:928.222 - 2.807ms returns TRUE
TB408 000:928.262 JLINK_ReadReg(R15 (PC))
TB408 000:928.298 - 0.047ms returns 0x20000000
TB408 000:928.401 JLINK_ClrBPEx(BPHandle = 0x00000003)
TB408 000:928.446 - 0.056ms returns 0x00
TB408 000:928.472 JLINK_ReadReg(R0)
TB408 000:928.502 - 0.041ms returns 0x00000000
TB408 000:929.525 JLINK_HasError()
TB408 000:929.582 JLINK_WriteReg(R0, 0x08000800)
TB408 000:929.618 - 0.049ms returns 0
TB408 000:929.647 JLINK_WriteReg(R1, 0x00000800)
TB408 000:929.677 - 0.044ms returns 0
TB408 000:929.706 JLINK_WriteReg(R2, 0x000000FF)
TB408 000:929.739 - 0.045ms returns 0
TB408 000:929.766 JLINK_WriteReg(R3, 0x00000000)
TB408 000:929.799 - 0.045ms returns 0
TB408 000:929.825 JLINK_WriteReg(R4, 0x00000000)
TB408 000:929.858 - 0.045ms returns 0
TB408 000:929.887 JLINK_WriteReg(R5, 0x00000000)
TB408 000:929.975 - 0.104ms returns 0
TB408 000:930.007 JLINK_WriteReg(R6, 0x00000000)
TB408 000:930.040 - 0.045ms returns 0
TB408 000:930.066 JLINK_WriteReg(R7, 0x00000000)
TB408 000:930.099 - 0.045ms returns 0
TB408 000:930.126 JLINK_WriteReg(R8, 0x00000000)
TB408 000:930.590 - 0.501ms returns 0
TB408 000:930.647 JLINK_WriteReg(R9, 0x20000160)
TB408 000:930.688 - 0.057ms returns 0
TB408 000:930.723 JLINK_WriteReg(R10, 0x00000000)
TB408 000:930.800 - 0.091ms returns 0
TB408 000:930.833 JLINK_WriteReg(R11, 0x00000000)
TB408 000:930.869 - 0.051ms returns 0
TB408 000:930.901 JLINK_WriteReg(R12, 0x00000000)
TB408 000:930.938 - 0.053ms returns 0
TB408 000:930.971 JLINK_WriteReg(R13 (SP), 0x20001000)
TB408 000:931.011 - 0.058ms returns 0
TB408 000:931.050 JLINK_WriteReg(R14, 0x20000001)
TB408 000:931.092 - 0.059ms returns 0
TB408 000:931.127 JLINK_WriteReg(R15 (PC), 0x20000020)
TB408 000:931.169 - 0.060ms returns 0
TB408 000:931.217 JLINK_WriteReg(XPSR, 0x01000000)
TB408 000:931.278 - 0.081ms returns 0
TB408 000:931.314 JLINK_WriteReg(MSP, 0x20001000)
TB408 000:931.357 - 0.059ms returns 0
TB408 000:931.392 JLINK_WriteReg(PSP, 0x20001000)
TB408 000:931.439 - 0.060ms returns 0
TB408 000:931.471 JLINK_WriteReg(CFBP, 0x00000000)
TB408 000:931.511 - 0.053ms returns 0
TB408 000:931.541 JLINK_SetBPEx(Addr = 0x20000000, Type = 0xFFFFFFF2)
TB408 000:931.588 - 0.064ms returns 0x00000004
TB408 000:931.625 JLINK_Go()
TB408 000:931.766   CPU_ReadMem(4 bytes @ 0xE0001000)
TB408 000:934.437 - 2.848ms
TB408 000:934.489 JLINK_IsHalted()
TB408 000:936.679   CPU_ReadMem(2 bytes @ 0x20000000)
TB408 000:937.229 - 2.756ms returns TRUE
TB408 000:937.263 JLINK_ReadReg(R15 (PC))
TB408 000:937.295 - 0.043ms returns 0x20000000
TB408 000:937.320 JLINK_ClrBPEx(BPHandle = 0x00000004)
TB408 000:937.352 - 0.042ms returns 0x00
TB408 000:937.375 JLINK_ReadReg(R0)
TB408 000:937.551 - 0.190ms returns 0x00000001
TB408 000:937.582 JLINK_HasError()
TB408 000:937.607 JLINK_WriteReg(R0, 0x08000800)
TB408 000:937.670 - 0.074ms returns 0
TB408 000:937.695 JLINK_WriteReg(R1, 0x00000800)
TB408 000:937.725 - 0.040ms returns 0
TB408 000:937.748 JLINK_WriteReg(R2, 0x000000FF)
TB408 000:937.776 - 0.039ms returns 0
TB408 000:937.801 JLINK_WriteReg(R3, 0x00000000)
TB408 000:937.829 - 0.041ms returns 0
TB408 000:937.856 JLINK_WriteReg(R4, 0x00000000)
TB408 000:937.885 - 0.040ms returns 0
TB408 000:937.909 JLINK_WriteReg(R5, 0x00000000)
TB408 000:937.939 - 0.042ms returns 0
TB408 000:937.964 JLINK_WriteReg(R6, 0x00000000)
TB408 000:937.991 - 0.037ms returns 0
TB408 000:938.014 JLINK_WriteReg(R7, 0x00000000)
TB408 000:938.052 - 0.050ms returns 0
TB408 000:938.078 JLINK_WriteReg(R8, 0x00000000)
TB408 000:938.106 - 0.039ms returns 0
TB408 000:938.130 JLINK_WriteReg(R9, 0x20000160)
TB408 000:938.158 - 0.038ms returns 0
TB408 000:938.180 JLINK_WriteReg(R10, 0x00000000)
TB408 000:938.258 - 0.091ms returns 0
TB408 000:938.283 JLINK_WriteReg(R11, 0x00000000)
TB408 000:938.311 - 0.039ms returns 0
TB408 000:938.336 JLINK_WriteReg(R12, 0x00000000)
TB408 000:938.366 - 0.044ms returns 0
TB408 000:938.393 JLINK_WriteReg(R13 (SP), 0x20001000)
TB408 000:938.423 - 0.042ms returns 0
TB408 000:938.448 JLINK_WriteReg(R14, 0x20000001)
TB408 000:938.476 - 0.040ms returns 0
TB408 000:938.501 JLINK_WriteReg(R15 (PC), 0x200000B6)
TB408 000:938.597 - 0.113ms returns 0
TB408 000:938.627 JLINK_WriteReg(XPSR, 0x01000000)
TB408 000:938.751 - 0.137ms returns 0
TB408 000:938.777 JLINK_WriteReg(MSP, 0x20001000)
TB408 000:938.805 - 0.038ms returns 0
TB408 000:938.827 JLINK_WriteReg(PSP, 0x20001000)
TB408 000:938.855 - 0.039ms returns 0
TB408 000:938.878 JLINK_WriteReg(CFBP, 0x00000000)
TB408 000:938.905 - 0.037ms returns 0
TB408 000:938.928 JLINK_SetBPEx(Addr = 0x20000000, Type = 0xFFFFFFF2)
TB408 000:938.956 - 0.038ms returns 0x00000005
TB408 000:938.978 JLINK_Go()
TB408 000:939.014   CPU_ReadMem(4 bytes @ 0xE0001000)
TB408 000:941.656 - 2.708ms
TB408 000:941.703 JLINK_IsHalted()
TB408 000:942.107 - 0.424ms returns FALSE
TB408 000:942.142 JLINK_HasError()
TB408 000:945.376 JLINK_IsHalted()
TB408 000:946.015 - 0.672ms returns FALSE
TB408 000:946.066 JLINK_HasError()
TB408 000:947.383 JLINK_IsHalted()
TB408 000:947.995 - 0.641ms returns FALSE
TB408 000:948.048 JLINK_HasError()
TB408 000:952.358 JLINK_IsHalted()
TB408 000:952.938 - 0.611ms returns FALSE
TB408 000:952.987 JLINK_HasError()
TB408 001:010.207 JLINK_IsHalted()
TB408 001:012.520   CPU_ReadMem(2 bytes @ 0x20000000)
TB408 001:013.140 - 2.962ms returns TRUE
TB408 001:013.190 JLINK_ReadReg(R15 (PC))
TB408 001:013.228 - 0.050ms returns 0x20000000
TB408 001:013.254 JLINK_ClrBPEx(BPHandle = 0x00000005)
TB408 001:013.293 - 0.052ms returns 0x00
TB408 001:013.319 JLINK_ReadReg(R0)
TB408 001:013.349 - 0.041ms returns 0x00000000
TB408 001:014.039 JLINK_HasError()
TB408 001:014.076 JLINK_WriteReg(R0, 0x08001000)
TB408 001:014.107 - 0.044ms returns 0
TB408 001:014.134 JLINK_WriteReg(R1, 0x00000800)
TB408 001:014.164 - 0.043ms returns 0
TB408 001:014.193 JLINK_WriteReg(R2, 0x000000FF)
TB408 001:014.226 - 0.044ms returns 0
TB408 001:014.250 JLINK_WriteReg(R3, 0x00000000)
TB408 001:014.280 - 0.041ms returns 0
TB408 001:014.304 JLINK_WriteReg(R4, 0x00000000)
TB408 001:014.331 - 0.037ms returns 0
TB408 001:014.354 JLINK_WriteReg(R5, 0x00000000)
TB408 001:014.383 - 0.039ms returns 0
TB408 001:014.407 JLINK_WriteReg(R6, 0x00000000)
TB408 001:014.572 - 0.178ms returns 0
TB408 001:014.597 JLINK_WriteReg(R7, 0x00000000)
TB408 001:014.648 - 0.064ms returns 0
TB408 001:014.674 JLINK_WriteReg(R8, 0x00000000)
TB408 001:014.703 - 0.042ms returns 0
TB408 001:014.730 JLINK_WriteReg(R9, 0x20000160)
TB408 001:014.760 - 0.042ms returns 0
TB408 001:014.785 JLINK_WriteReg(R10, 0x00000000)
TB408 001:014.816 - 0.041ms returns 0
TB408 001:014.840 JLINK_WriteReg(R11, 0x00000000)
TB408 001:014.870 - 0.042ms returns 0
TB408 001:014.895 JLINK_WriteReg(R12, 0x00000000)
TB408 001:014.923 - 0.040ms returns 0
TB408 001:014.949 JLINK_WriteReg(R13 (SP), 0x20001000)
TB408 001:014.978 - 0.041ms returns 0
TB408 001:015.003 JLINK_WriteReg(R14, 0x20000001)
TB408 001:015.033 - 0.041ms returns 0
TB408 001:015.057 JLINK_WriteReg(R15 (PC), 0x20000020)
TB408 001:015.147 - 0.105ms returns 0
TB408 001:015.178 JLINK_WriteReg(XPSR, 0x01000000)
TB408 001:015.209 - 0.042ms returns 0
TB408 001:015.233 JLINK_WriteReg(MSP, 0x20001000)
TB408 001:015.264 - 0.041ms returns 0
TB408 001:015.288 JLINK_WriteReg(PSP, 0x20001000)
TB408 001:015.317 - 0.040ms returns 0
TB408 001:015.342 JLINK_WriteReg(CFBP, 0x00000000)
TB408 001:015.371 - 0.041ms returns 0
TB408 001:015.396 JLINK_SetBPEx(Addr = 0x20000000, Type = 0xFFFFFFF2)
TB408 001:015.429 - 0.045ms returns 0x00000006
TB408 001:015.453 JLINK_Go()
TB408 001:015.496   CPU_ReadMem(4 bytes @ 0xE0001000)
TB408 001:018.004 - 2.597ms
TB408 001:018.071 JLINK_IsHalted()
TB408 001:020.270   CPU_ReadMem(2 bytes @ 0x20000000)
TB408 001:020.757 - 2.711ms returns TRUE
TB408 001:020.801 JLINK_ReadReg(R15 (PC))
TB408 001:020.838 - 0.049ms returns 0x20000000
TB408 001:020.864 JLINK_ClrBPEx(BPHandle = 0x00000006)
TB408 001:020.893 - 0.041ms returns 0x00
TB408 001:020.922 JLINK_ReadReg(R0)
TB408 001:020.958 - 0.047ms returns 0x00000001
TB408 001:020.983 JLINK_HasError()
TB408 001:021.010 JLINK_WriteReg(R0, 0x08001000)
TB408 001:021.242 - 0.402ms returns 0
TB408 001:021.447 JLINK_WriteReg(R1, 0x00000800)
TB408 001:021.478 - 0.043ms returns 0
TB408 001:021.503 JLINK_WriteReg(R2, 0x000000FF)
TB408 001:021.534 - 0.042ms returns 0
TB408 001:021.558 JLINK_WriteReg(R3, 0x00000000)
TB408 001:021.588 - 0.043ms returns 0
TB408 001:021.614 JLINK_WriteReg(R4, 0x00000000)
TB408 001:021.642 - 0.041ms returns 0
TB408 001:021.668 JLINK_WriteReg(R5, 0x00000000)
TB408 001:021.696 - 0.039ms returns 0
TB408 001:021.719 JLINK_WriteReg(R6, 0x00000000)
TB408 001:021.756 - 0.048ms returns 0
TB408 001:021.779 JLINK_WriteReg(R7, 0x00000000)
TB408 001:021.810 - 0.042ms returns 0
TB408 001:021.835 JLINK_WriteReg(R8, 0x00000000)
TB408 001:021.864 - 0.044ms returns 0
TB408 001:021.895 JLINK_WriteReg(R9, 0x20000160)
TB408 001:021.923 - 0.040ms returns 0
TB408 001:021.949 JLINK_WriteReg(R10, 0x00000000)
TB408 001:021.979 - 0.041ms returns 0
TB408 001:022.003 JLINK_WriteReg(R11, 0x00000000)
TB408 001:022.033 - 0.042ms returns 0
TB408 001:022.058 JLINK_WriteReg(R12, 0x00000000)
TB408 001:022.087 - 0.042ms returns 0
TB408 001:022.113 JLINK_WriteReg(R13 (SP), 0x20001000)
TB408 001:022.144 - 0.047ms returns 0
TB408 001:022.175 JLINK_WriteReg(R14, 0x20000001)
TB408 001:022.207 - 0.046ms returns 0
TB408 001:022.234 JLINK_WriteReg(R15 (PC), 0x200000B6)
TB408 001:022.264 - 0.043ms returns 0
TB408 001:022.291 JLINK_WriteReg(XPSR, 0x01000000)
TB408 001:022.324 - 0.045ms returns 0
TB408 001:022.350 JLINK_WriteReg(MSP, 0x20001000)
TB408 001:022.574 - 0.241ms returns 0
TB408 001:022.606 JLINK_WriteReg(PSP, 0x20001000)
TB408 001:022.638 - 0.045ms returns 0
TB408 001:022.665 JLINK_WriteReg(CFBP, 0x00000000)
TB408 001:022.708 - 0.057ms returns 0
TB408 001:022.737 JLINK_SetBPEx(Addr = 0x20000000, Type = 0xFFFFFFF2)
TB408 001:022.861 - 0.142ms returns 0x00000007
TB408 001:022.895 JLINK_Go()
TB408 001:022.948   CPU_ReadMem(4 bytes @ 0xE0001000)
TB408 001:025.429 - 2.576ms
TB408 001:025.492 JLINK_IsHalted()
TB408 001:025.906 - 0.437ms returns FALSE
TB408 001:025.948 JLINK_HasError()
TB408 001:029.154 JLINK_IsHalted()
TB408 001:029.834 - 0.709ms returns FALSE
TB408 001:029.883 JLINK_HasError()
TB408 001:134.866 JLINK_IsHalted()
TB408 001:137.093   CPU_ReadMem(2 bytes @ 0x20000000)
TB408 001:137.656 - 2.808ms returns TRUE
TB408 001:137.702 JLINK_ReadReg(R15 (PC))
TB408 001:137.733 - 0.041ms returns 0x20000000
TB408 001:137.755 JLINK_ClrBPEx(BPHandle = 0x00000007)
TB408 001:137.784 - 0.039ms returns 0x00
TB408 001:137.806 JLINK_ReadReg(R0)
TB408 001:137.836 - 0.042ms returns 0x00000000
TB408 001:138.268 JLINK_HasError()
TB408 001:138.303 JLINK_WriteReg(R0, 0x00000001)
TB408 001:138.333 - 0.042ms returns 0
TB408 001:138.357 JLINK_WriteReg(R1, 0x00000800)
TB408 001:138.385 - 0.038ms returns 0
TB408 001:138.407 JLINK_WriteReg(R2, 0x000000FF)
TB408 001:138.437 - 0.042ms returns 0
TB408 001:138.462 JLINK_WriteReg(R3, 0x00000000)
TB408 001:138.491 - 0.041ms returns 0
TB408 001:138.518 JLINK_WriteReg(R4, 0x00000000)
TB408 001:138.544 - 0.037ms returns 0
TB408 001:138.567 JLINK_WriteReg(R5, 0x00000000)
TB408 001:138.596 - 0.042ms returns 0
TB408 001:138.622 JLINK_WriteReg(R6, 0x00000000)
TB408 001:138.653 - 0.043ms returns 0
TB408 001:138.677 JLINK_WriteReg(R7, 0x00000000)
TB408 001:138.870 - 0.207ms returns 0
TB408 001:138.898 JLINK_WriteReg(R8, 0x00000000)
TB408 001:138.926 - 0.038ms returns 0
TB408 001:138.949 JLINK_WriteReg(R9, 0x20000160)
TB408 001:138.978 - 0.041ms returns 0
TB408 001:139.002 JLINK_WriteReg(R10, 0x00000000)
TB408 001:139.034 - 0.046ms returns 0
TB408 001:139.062 JLINK_WriteReg(R11, 0x00000000)
TB408 001:139.097 - 0.048ms returns 0
TB408 001:139.123 JLINK_WriteReg(R12, 0x00000000)
TB408 001:139.151 - 0.041ms returns 0
TB408 001:139.178 JLINK_WriteReg(R13 (SP), 0x20001000)
TB408 001:139.207 - 0.040ms returns 0
TB408 001:139.231 JLINK_WriteReg(R14, 0x20000001)
TB408 001:139.262 - 0.042ms returns 0
TB408 001:139.286 JLINK_WriteReg(R15 (PC), 0x2000006A)
TB408 001:139.317 - 0.042ms returns 0
TB408 001:139.348 JLINK_WriteReg(XPSR, 0x01000000)
TB408 001:139.381 - 0.045ms returns 0
TB408 001:139.406 JLINK_WriteReg(MSP, 0x20001000)
TB408 001:139.434 - 0.038ms returns 0
TB408 001:139.456 JLINK_WriteReg(PSP, 0x20001000)
TB408 001:139.483 - 0.038ms returns 0
TB408 001:139.506 JLINK_WriteReg(CFBP, 0x00000000)
TB408 001:139.537 - 0.042ms returns 0
TB408 001:139.561 JLINK_SetBPEx(Addr = 0x20000000, Type = 0xFFFFFFF2)
TB408 001:139.593 - 0.044ms returns 0x00000008
TB408 001:139.619 JLINK_Go()
TB408 001:139.658   CPU_ReadMem(4 bytes @ 0xE0001000)
TB408 001:142.109 - 2.530ms
TB408 001:142.168 JLINK_IsHalted()
TB408 001:144.364   CPU_ReadMem(2 bytes @ 0x20000000)
TB408 001:144.954 - 2.811ms returns TRUE
TB408 001:144.999 JLINK_ReadReg(R15 (PC))
TB408 001:145.033 - 0.045ms returns 0x20000000
TB408 001:145.057 JLINK_ClrBPEx(BPHandle = 0x00000008)
TB408 001:145.263 - 0.221ms returns 0x00
TB408 001:145.292 JLINK_ReadReg(R0)
TB408 001:145.320 - 0.039ms returns 0x00000000
TB408 001:204.733 JLINK_WriteMem(0x20000000, 0x164 Bytes, ...)
TB408 001:204.774   Data:  00 BE 0A E0 0D 78 2D 06 68 40 08 24 40 00 00 D3 ...
TB408 001:204.881   CPU_WriteMem(356 bytes @ 0x20000000)
TB408 001:207.456 - 2.750ms returns 0x164
TB408 001:207.550 JLINK_HasError()
TB408 001:207.580 JLINK_WriteReg(R0, 0x08000000)
TB408 001:207.614 - 0.045ms returns 0
TB408 001:207.637 JLINK_WriteReg(R1, 0x044AA200)
TB408 001:207.671 - 0.044ms returns 0
TB408 001:207.693 JLINK_WriteReg(R2, 0x00000002)
TB408 001:207.721 - 0.039ms returns 0
TB408 001:207.747 JLINK_WriteReg(R3, 0x00000000)
TB408 001:207.776 - 0.042ms returns 0
TB408 001:207.802 JLINK_WriteReg(R4, 0x00000000)
TB408 001:207.834 - 0.043ms returns 0
TB408 001:207.858 JLINK_WriteReg(R5, 0x00000000)
TB408 001:207.887 - 0.039ms returns 0
TB408 001:207.909 JLINK_WriteReg(R6, 0x00000000)
TB408 001:207.937 - 0.038ms returns 0
TB408 001:207.962 JLINK_WriteReg(R7, 0x00000000)
TB408 001:207.992 - 0.042ms returns 0
TB408 001:208.018 JLINK_WriteReg(R8, 0x00000000)
TB408 001:208.044 - 0.038ms returns 0
TB408 001:208.069 JLINK_WriteReg(R9, 0x20000160)
TB408 001:208.279 - 0.224ms returns 0
TB408 001:208.307 JLINK_WriteReg(R10, 0x00000000)
TB408 001:208.338 - 0.043ms returns 0
TB408 001:208.365 JLINK_WriteReg(R11, 0x00000000)
TB408 001:208.395 - 0.042ms returns 0
TB408 001:208.420 JLINK_WriteReg(R12, 0x00000000)
TB408 001:208.449 - 0.040ms returns 0
TB408 001:208.471 JLINK_WriteReg(R13 (SP), 0x20001000)
TB408 001:208.502 - 0.044ms returns 0
TB408 001:208.529 JLINK_WriteReg(R14, 0x20000001)
TB408 001:208.558 - 0.040ms returns 0
TB408 001:208.583 JLINK_WriteReg(R15 (PC), 0x20000038)
TB408 001:208.614 - 0.045ms returns 0
TB408 001:208.642 JLINK_WriteReg(XPSR, 0x01000000)
TB408 001:208.680 - 0.049ms returns 0
TB408 001:208.703 JLINK_WriteReg(MSP, 0x20001000)
TB408 001:208.730 - 0.037ms returns 0
TB408 001:208.752 JLINK_WriteReg(PSP, 0x20001000)
TB408 001:208.779 - 0.037ms returns 0
TB408 001:208.801 JLINK_WriteReg(CFBP, 0x00000000)
TB408 001:208.828 - 0.037ms returns 0
TB408 001:208.850 JLINK_SetBPEx(Addr = 0x20000000, Type = 0xFFFFFFF2)
TB408 001:208.885   CPU_ReadMem(2 bytes @ 0x20000000)
TB408 001:209.402 - 0.570ms returns 0x00000009
TB408 001:209.436 JLINK_Go()
TB408 001:209.480   CPU_WriteMem(2 bytes @ 0x20000000)
TB408 001:209.990   CPU_ReadMem(4 bytes @ 0xE0001000)
TB408 001:212.648 - 3.246ms
TB408 001:212.713 JLINK_IsHalted()
TB408 001:214.752   CPU_ReadMem(2 bytes @ 0x20000000)
TB408 001:215.278 - 2.583ms returns TRUE
TB408 001:215.312 JLINK_ReadReg(R15 (PC))
TB408 001:215.346 - 0.044ms returns 0x20000000
TB408 001:215.369 JLINK_ClrBPEx(BPHandle = 0x00000009)
TB408 001:215.397 - 0.040ms returns 0x00
TB408 001:215.422 JLINK_ReadReg(R0)
TB408 001:215.451 - 0.041ms returns 0x00000000
TB408 001:215.846 JLINK_WriteMem(0x20000164, 0x29C Bytes, ...)
TB408 001:215.876   Data:  68 04 00 20 49 01 00 08 0B 10 00 08 B1 0F 00 08 ...
TB408 001:216.105   CPU_WriteMem(668 bytes @ 0x20000164)
TB408 001:220.305 - 4.517ms returns 0x29C
TB408 001:220.389 JLINK_WriteMem(0x20000400, 0x164 Bytes, ...)
TB408 001:220.432   Data:  28 36 B1 42 06 D0 22 4A 3C 32 91 42 01 D1 1A 46 ...
TB408 001:220.496   CPU_WriteMem(356 bytes @ 0x20000400)
TB408 001:223.134 - 2.791ms returns 0x164
TB408 001:223.207 JLINK_HasError()
TB408 001:223.235 JLINK_WriteReg(R0, 0x08000000)
TB408 001:223.276 - 0.053ms returns 0
TB408 001:223.302 JLINK_WriteReg(R1, 0x00000400)
TB408 001:223.331 - 0.042ms returns 0
TB408 001:223.358 JLINK_WriteReg(R2, 0x20000164)
TB408 001:223.483 - 0.139ms returns 0
TB408 001:223.511 JLINK_WriteReg(R3, 0x00000000)
TB408 001:223.542 - 0.042ms returns 0
TB408 001:223.567 JLINK_WriteReg(R4, 0x00000000)
TB408 001:223.596 - 0.040ms returns 0
TB408 001:223.624 JLINK_WriteReg(R5, 0x00000000)
TB408 001:223.651 - 0.039ms returns 0
TB408 001:223.676 JLINK_WriteReg(R6, 0x00000000)
TB408 001:223.703 - 0.037ms returns 0
TB408 001:223.725 JLINK_WriteReg(R7, 0x00000000)
TB408 001:223.756 - 0.042ms returns 0
TB408 001:223.780 JLINK_WriteReg(R8, 0x00000000)
TB408 001:223.809 - 0.040ms returns 0
TB408 001:223.832 JLINK_WriteReg(R9, 0x20000160)
TB408 001:223.860 - 0.039ms returns 0
TB408 001:223.886 JLINK_WriteReg(R10, 0x00000000)
TB408 001:223.917 - 0.042ms returns 0
TB408 001:223.942 JLINK_WriteReg(R11, 0x00000000)
TB408 001:223.969 - 0.038ms returns 0
TB408 001:223.992 JLINK_WriteReg(R12, 0x00000000)
TB408 001:224.021 - 0.039ms returns 0
TB408 001:224.043 JLINK_WriteReg(R13 (SP), 0x20001000)
TB408 001:224.074 - 0.041ms returns 0
TB408 001:224.097 JLINK_WriteReg(R14, 0x20000001)
TB408 001:224.288 - 0.206ms returns 0
TB408 001:224.317 JLINK_WriteReg(R15 (PC), 0x200000F4)
TB408 001:224.353 - 0.047ms returns 0
TB408 001:224.377 JLINK_WriteReg(XPSR, 0x01000000)
TB408 001:224.404 - 0.038ms returns 0
TB408 001:224.428 JLINK_WriteReg(MSP, 0x20001000)
TB408 001:224.458 - 0.041ms returns 0
TB408 001:224.480 JLINK_WriteReg(PSP, 0x20001000)
TB408 001:224.509 - 0.039ms returns 0
TB408 001:224.532 JLINK_WriteReg(CFBP, 0x00000000)
TB408 001:224.559 - 0.040ms returns 0
TB408 001:224.586 JLINK_SetBPEx(Addr = 0x20000000, Type = 0xFFFFFFF2)
TB408 001:224.639 - 0.067ms returns 0x0000000A
TB408 001:224.667 JLINK_Go()
TB408 001:224.715   CPU_ReadMem(4 bytes @ 0xE0001000)
TB408 001:227.666 - 3.060ms
TB408 001:227.749 JLINK_IsHalted()
TB408 001:228.275 - 0.549ms returns FALSE
TB408 001:228.315 JLINK_HasError()
TB408 001:241.591 JLINK_IsHalted()
TB408 001:242.229 - 0.661ms returns FALSE
TB408 001:242.270 JLINK_HasError()
TB408 001:245.601 JLINK_IsHalted()
TB408 001:246.229 - 0.660ms returns FALSE
TB408 001:246.279 JLINK_HasError()
TB408 001:247.566 JLINK_IsHalted()
TB408 001:248.130 - 0.587ms returns FALSE
TB408 001:248.169 JLINK_HasError()
TB408 001:249.570 JLINK_IsHalted()
TB408 001:250.025 - 0.475ms returns FALSE
TB408 001:250.061 JLINK_HasError()
TB408 001:256.555 JLINK_IsHalted()
TB408 001:257.099 - 0.570ms returns FALSE
TB408 001:257.144 JLINK_HasError()
TB408 001:258.537 JLINK_IsHalted()
TB408 001:260.786   CPU_ReadMem(2 bytes @ 0x20000000)
TB408 001:261.478 - 2.966ms returns TRUE
TB408 001:261.532 JLINK_ReadReg(R15 (PC))
TB408 001:261.572 - 0.053ms returns 0x20000000
TB408 001:261.602 JLINK_ClrBPEx(BPHandle = 0x0000000A)
TB408 001:261.635 - 0.046ms returns 0x00
TB408 001:261.664 JLINK_ReadReg(R0)
TB408 001:261.695 - 0.043ms returns 0x00000000
TB408 001:262.527 JLINK_WriteMem(0x20000164, 0x29C Bytes, ...)
TB408 001:262.577   Data:  05 08 C6 F8 00 80 4D 68 ED 00 70 D5 3E 4D AE 69 ...
TB408 001:262.638   CPU_WriteMem(668 bytes @ 0x20000164)
TB408 001:266.940 - 4.470ms returns 0x29C
TB408 001:267.021 JLINK_WriteMem(0x20000400, 0x164 Bytes, ...)
TB408 001:267.049   Data:  40 F4 E0 60 60 60 28 78 00 07 03 D5 60 68 40 F4 ...
TB408 001:267.277   CPU_WriteMem(356 bytes @ 0x20000400)
TB408 001:269.866 - 2.882ms returns 0x164
TB408 001:269.923 JLINK_HasError()
TB408 001:269.952 JLINK_WriteReg(R0, 0x08000400)
TB408 001:269.990 - 0.049ms returns 0
TB408 001:270.015 JLINK_WriteReg(R1, 0x00000400)
TB408 001:270.045 - 0.042ms returns 0
TB408 001:270.078 JLINK_WriteReg(R2, 0x20000164)
TB408 001:270.121 - 0.056ms returns 0
TB408 001:270.147 JLINK_WriteReg(R3, 0x00000000)
TB408 001:270.177 - 0.043ms returns 0
TB408 001:270.204 JLINK_WriteReg(R4, 0x00000000)
TB408 001:270.234 - 0.043ms returns 0
TB408 001:270.260 JLINK_WriteReg(R5, 0x00000000)
TB408 001:270.400 - 0.155ms returns 0
TB408 001:270.429 JLINK_WriteReg(R6, 0x00000000)
TB408 001:270.459 - 0.041ms returns 0
TB408 001:270.483 JLINK_WriteReg(R7, 0x00000000)
TB408 001:270.516 - 0.046ms returns 0
TB408 001:270.543 JLINK_WriteReg(R8, 0x00000000)
TB408 001:270.573 - 0.042ms returns 0
TB408 001:270.598 JLINK_WriteReg(R9, 0x20000160)
TB408 001:270.630 - 0.043ms returns 0
TB408 001:270.654 JLINK_WriteReg(R10, 0x00000000)
TB408 001:270.687 - 0.046ms returns 0
TB408 001:270.714 JLINK_WriteReg(R11, 0x00000000)
TB408 001:270.744 - 0.042ms returns 0
TB408 001:270.771 JLINK_WriteReg(R12, 0x00000000)
TB408 001:270.800 - 0.040ms returns 0
TB408 001:270.825 JLINK_WriteReg(R13 (SP), 0x20001000)
TB408 001:270.857 - 0.043ms returns 0
TB408 001:270.881 JLINK_WriteReg(R14, 0x20000001)
TB408 001:270.910 - 0.041ms returns 0
TB408 001:270.936 JLINK_WriteReg(R15 (PC), 0x200000F4)
TB408 001:271.071 - 0.150ms returns 0
TB408 001:271.099 JLINK_WriteReg(XPSR, 0x01000000)
TB408 001:271.131 - 0.044ms returns 0
TB408 001:271.155 JLINK_WriteReg(MSP, 0x20001000)
TB408 001:271.187 - 0.044ms returns 0
TB408 001:271.214 JLINK_WriteReg(PSP, 0x20001000)
TB408 001:271.245 - 0.043ms returns 0
TB408 001:271.270 JLINK_WriteReg(CFBP, 0x00000000)
TB408 001:271.301 - 0.044ms returns 0
TB408 001:271.329 JLINK_SetBPEx(Addr = 0x20000000, Type = 0xFFFFFFF2)
TB408 001:271.360 - 0.043ms returns 0x0000000B
TB408 001:271.386 JLINK_Go()
TB408 001:271.429   CPU_ReadMem(4 bytes @ 0xE0001000)
TB408 001:274.271 - 2.952ms
TB408 001:274.356 JLINK_IsHalted()
TB408 001:274.797 - 0.463ms returns FALSE
TB408 001:274.835 JLINK_HasError()
TB408 001:277.483 JLINK_IsHalted()
TB408 001:278.047 - 0.585ms returns FALSE
TB408 001:278.084 JLINK_HasError()
TB408 001:279.479 JLINK_IsHalted()
TB408 001:279.974 - 0.519ms returns FALSE
TB408 001:280.015 JLINK_HasError()
TB408 001:281.471 JLINK_IsHalted()
TB408 001:282.029 - 0.580ms returns FALSE
TB408 001:282.067 JLINK_HasError()
TB408 001:381.241 JLINK_IsHalted()
TB408 001:383.535   CPU_ReadMem(2 bytes @ 0x20000000)
TB408 001:384.080 - 2.867ms returns TRUE
TB408 001:384.126 JLINK_ReadReg(R15 (PC))
TB408 001:384.162 - 0.049ms returns 0x20000000
TB408 001:384.193 JLINK_ClrBPEx(BPHandle = 0x0000000B)
TB408 001:384.223 - 0.042ms returns 0x00
TB408 001:384.250 JLINK_ReadReg(R0)
TB408 001:384.280 - 0.042ms returns 0x00000000
TB408 001:385.137 JLINK_WriteMem(0x20000164, 0x29C Bytes, ...)
TB408 001:385.189   Data:  04 AA C1 F3 40 41 51 5C 0A 4A 50 43 B0 FB F1 F0 ...
TB408 001:385.270   CPU_WriteMem(668 bytes @ 0x20000164)
TB408 001:389.604 - 4.531ms returns 0x29C
TB408 001:389.694 JLINK_WriteMem(0x20000400, 0x164 Bytes, ...)
TB408 001:389.720   Data:  C6 F8 60 80 04 D0 FF F7 41 FD 04 46 38 E0 34 E0 ...
TB408 001:389.794   CPU_WriteMem(356 bytes @ 0x20000400)
TB408 001:392.366 - 2.712ms returns 0x164
TB408 001:392.431 JLINK_HasError()
TB408 001:392.464 JLINK_WriteReg(R0, 0x08000800)
TB408 001:392.522 - 0.071ms returns 0
TB408 001:392.552 JLINK_WriteReg(R1, 0x00000400)
TB408 001:392.591 - 0.053ms returns 0
TB408 001:392.622 JLINK_WriteReg(R2, 0x20000164)
TB408 001:392.653 - 0.046ms returns 0
TB408 001:392.683 JLINK_WriteReg(R3, 0x00000000)
TB408 001:392.839 - 0.174ms returns 0
TB408 001:392.874 JLINK_WriteReg(R4, 0x00000000)
TB408 001:392.905 - 0.044ms returns 0
TB408 001:392.936 JLINK_WriteReg(R5, 0x00000000)
TB408 001:392.970 - 0.047ms returns 0
TB408 001:392.998 JLINK_WriteReg(R6, 0x00000000)
TB408 001:393.028 - 0.041ms returns 0
TB408 001:393.054 JLINK_WriteReg(R7, 0x00000000)
TB408 001:393.084 - 0.043ms returns 0
TB408 001:393.111 JLINK_WriteReg(R8, 0x00000000)
TB408 001:393.140 - 0.041ms returns 0
TB408 001:393.169 JLINK_WriteReg(R9, 0x20000160)
TB408 001:393.204 - 0.052ms returns 0
TB408 001:393.237 JLINK_WriteReg(R10, 0x00000000)
TB408 001:393.268 - 0.043ms returns 0
TB408 001:393.295 JLINK_WriteReg(R11, 0x00000000)
TB408 001:393.325 - 0.042ms returns 0
TB408 001:393.352 JLINK_WriteReg(R12, 0x00000000)
TB408 001:393.384 - 0.043ms returns 0
TB408 001:393.409 JLINK_WriteReg(R13 (SP), 0x20001000)
TB408 001:393.443 - 0.046ms returns 0
TB408 001:393.471 JLINK_WriteReg(R14, 0x20000001)
TB408 001:393.500 - 0.041ms returns 0
TB408 001:393.526 JLINK_WriteReg(R15 (PC), 0x200000F4)
TB408 001:393.555 - 0.042ms returns 0
TB408 001:393.582 JLINK_WriteReg(XPSR, 0x01000000)
TB408 001:393.611 - 0.090ms returns 0
TB408 001:393.687 JLINK_WriteReg(MSP, 0x20001000)
TB408 001:393.716 - 0.040ms returns 0
TB408 001:393.743 JLINK_WriteReg(PSP, 0x20001000)
TB408 001:393.771 - 0.041ms returns 0
TB408 001:393.797 JLINK_WriteReg(CFBP, 0x00000000)
TB408 001:393.973 - 0.189ms returns 0
TB408 001:394.001 JLINK_SetBPEx(Addr = 0x20000000, Type = 0xFFFFFFF2)
TB408 001:394.034 - 0.045ms returns 0x0000000C
TB408 001:394.059 JLINK_Go()
TB408 001:394.100   CPU_ReadMem(4 bytes @ 0xE0001000)
TB408 001:396.647 - 2.615ms
TB408 001:396.727 JLINK_IsHalted()
TB408 001:397.248 - 0.539ms returns FALSE
TB408 001:397.283 JLINK_HasError()
TB408 001:406.143 JLINK_IsHalted()
TB408 001:406.708 - 0.607ms returns FALSE
TB408 001:406.769 JLINK_HasError()
TB408 001:408.146 JLINK_IsHalted()
TB408 001:408.575 - 0.450ms returns FALSE
TB408 001:408.612 JLINK_HasError()
TB408 001:410.150 JLINK_IsHalted()
TB408 001:410.695 - 0.563ms returns FALSE
TB408 001:410.743 JLINK_HasError()
TB408 001:414.118 JLINK_IsHalted()
TB408 001:414.651 - 0.555ms returns FALSE
TB408 001:414.692 JLINK_HasError()
TB408 001:489.920 JLINK_IsHalted()
TB408 001:492.228   CPU_ReadMem(2 bytes @ 0x20000000)
TB408 001:492.754 - 2.855ms returns TRUE
TB408 001:492.793 JLINK_ReadReg(R15 (PC))
TB408 001:492.832 - 0.052ms returns 0x20000000
TB408 001:492.859 JLINK_ClrBPEx(BPHandle = 0x0000000C)
TB408 001:492.890 - 0.046ms returns 0x00
TB408 001:492.918 JLINK_ReadReg(R0)
TB408 001:492.947 - 0.040ms returns 0x00000000
TB408 001:493.740 JLINK_WriteMem(0x20000164, 0x29C Bytes, ...)
TB408 001:493.781   Data:  51 FA 20 68 40 69 21 6C C0 F3 80 10 09 07 00 D4 ...
TB408 001:493.835   CPU_WriteMem(668 bytes @ 0x20000164)
TB408 001:498.029 - 4.338ms returns 0x29C
TB408 001:498.100 JLINK_WriteMem(0x20000400, 0x164 Bytes, ...)
TB408 001:498.128   Data:  70 47 02 20 70 47 00 00 10 B5 00 68 11 49 88 42 ...
TB408 001:498.190   CPU_WriteMem(356 bytes @ 0x20000400)
TB408 001:500.711 - 2.665ms returns 0x164
TB408 001:500.794 JLINK_HasError()
TB408 001:500.884 JLINK_WriteReg(R0, 0x08000C00)
TB408 001:500.929 - 0.057ms returns 0
TB408 001:500.955 JLINK_WriteReg(R1, 0x00000400)
TB408 001:500.987 - 0.043ms returns 0
TB408 001:501.012 JLINK_WriteReg(R2, 0x20000164)
TB408 001:501.041 - 0.041ms returns 0
TB408 001:501.067 JLINK_WriteReg(R3, 0x00000000)
TB408 001:501.099 - 0.045ms returns 0
TB408 001:501.127 JLINK_WriteReg(R4, 0x00000000)
TB408 001:501.287 - 0.174ms returns 0
TB408 001:501.315 JLINK_WriteReg(R5, 0x00000000)
TB408 001:501.348 - 0.045ms returns 0
TB408 001:501.373 JLINK_WriteReg(R6, 0x00000000)
TB408 001:501.404 - 0.044ms returns 0
TB408 001:501.431 JLINK_WriteReg(R7, 0x00000000)
TB408 001:501.464 - 0.044ms returns 0
TB408 001:501.489 JLINK_WriteReg(R8, 0x00000000)
TB408 001:501.521 - 0.044ms returns 0
TB408 001:501.548 JLINK_WriteReg(R9, 0x20000160)
TB408 001:501.582 - 0.046ms returns 0
TB408 001:501.607 JLINK_WriteReg(R10, 0x00000000)
TB408 001:501.637 - 0.044ms returns 0
TB408 001:501.666 JLINK_WriteReg(R11, 0x00000000)
TB408 001:501.811 - 0.161ms returns 0
TB408 001:501.842 JLINK_WriteReg(R12, 0x00000000)
TB408 001:501.876 - 0.046ms returns 0
TB408 001:501.901 JLINK_WriteReg(R13 (SP), 0x20001000)
TB408 001:501.934 - 0.047ms returns 0
TB408 001:501.962 JLINK_WriteReg(R14, 0x20000001)
TB408 001:501.992 - 0.045ms returns 0
TB408 001:502.022 JLINK_WriteReg(R15 (PC), 0x200000F4)
TB408 001:502.060 - 0.057ms returns 0
TB408 001:502.093 JLINK_WriteReg(XPSR, 0x01000000)
TB408 001:502.129 - 0.048ms returns 0
TB408 001:502.155 JLINK_WriteReg(MSP, 0x20001000)
TB408 001:502.187 - 0.044ms returns 0
TB408 001:502.213 JLINK_WriteReg(PSP, 0x20001000)
TB408 001:502.245 - 0.044ms returns 0
TB408 001:502.271 JLINK_WriteReg(CFBP, 0x00000000)
TB408 001:502.302 - 0.042ms returns 0
TB408 001:502.329 JLINK_SetBPEx(Addr = 0x20000000, Type = 0xFFFFFFF2)
TB408 001:502.510 - 0.196ms returns 0x0000000D
TB408 001:502.538 JLINK_Go()
TB408 001:502.587   CPU_ReadMem(4 bytes @ 0xE0001000)
TB408 001:505.328 - 2.829ms
TB408 001:505.387 JLINK_IsHalted()
TB408 001:505.850 - 0.506ms returns FALSE
TB408 001:505.910 JLINK_HasError()
TB408 001:510.860 JLINK_IsHalted()
TB408 001:511.354 - 0.515ms returns FALSE
TB408 001:511.391 JLINK_HasError()
TB408 001:512.851 JLINK_IsHalted()
TB408 001:513.308 - 0.478ms returns FALSE
TB408 001:513.344 JLINK_HasError()
TB408 001:514.845 JLINK_IsHalted()
TB408 001:515.292 - 0.465ms returns FALSE
TB408 001:515.326 JLINK_HasError()
TB408 001:518.845 JLINK_IsHalted()
TB408 001:519.274 - 0.452ms returns FALSE
TB408 001:519.314 JLINK_HasError()
TB408 001:575.688 JLINK_IsHalted()
TB408 001:578.060   CPU_ReadMem(2 bytes @ 0x20000000)
TB408 001:578.500 - 2.831ms returns TRUE
TB408 001:578.536 JLINK_ReadReg(R15 (PC))
TB408 001:578.573 - 0.049ms returns 0x20000000
TB408 001:578.598 JLINK_ClrBPEx(BPHandle = 0x0000000D)
TB408 001:578.629 - 0.043ms returns 0x00
TB408 001:578.655 JLINK_ReadReg(R0)
TB408 001:578.735 - 0.091ms returns 0x00000000
TB408 001:579.838 JLINK_WriteMem(0x20000164, 0x29C Bytes, ...)
TB408 001:579.898   Data:  00 38 01 40 20 00 00 20 FE E7 70 47 70 47 70 47 ...
TB408 001:579.960   CPU_WriteMem(668 bytes @ 0x20000164)
TB408 001:584.274 - 4.479ms returns 0x29C
